
**** 01/03/20 00:35:28 ******* PSpice Lite (March 2016) ******* ID# 10813 ****

 ** Profile: "SCHEMATIC1-telestikos"  [ c:\users\napoleon\desktop\opamp\telestikos-pspicefiles\schematic1\telestikos.sim ] 


 ****     CIRCUIT DESCRIPTION


******************************************************************************




** Creating circuit file "telestikos.cir" 
** WARNING: THIS AUTOMATICALLY GENERATED FILE MAY BE OVERWRITTEN BY SUBSEQUENT SIMULATIONS

*Libraries: 
* Profile Libraries :
* Local Libraries :
.LIB "../../../telestikos-pspicefiles/telestikos.lib" 
* From [PSPICE NETLIST] section of C:\Users\Napoleon\AppData\Roaming\SPB_Data\cdssetup\OrCAD_PSpice\17.2.0\PSpice.ini file:
.lib "nomd.lib" 

*Analysis directives: 
.TRAN  0 1us 0 
.TEMP  0 10 20 30 40 50 60 70
.OPTIONS ADVCONV
.PROBE64 V(alias(*)) I(alias(*)) W(alias(*)) D(alias(*)) NOISE(alias(*)) 
.INC "..\SCHEMATIC1.net" 



**** INCLUDING SCHEMATIC1.net ****
* source TELESTIKOS
M_M8         N04839 N04839 N04941 N04941 nfet  
+ L=1u  
+ W=1.3753u         
V_Vss         N04941 0 -2.01V
M_M6         N04639 N04587 N04545 N04545 pfet  
+ L=1u  
+ W=6.9534u         
C_Cc         N04587 N04639  0.9p  TC=0,0 
M_M7         N04639 N04839 N04941 N04941 nfet  
+ L=1u  
+ W=3.4062u         
M_M2         N04587 N09074 N04827 N04827 nfet  
+ L=1u  
+ W=3.5u         
M_M4         N04587 N04643 N04545 N04545 pfet  
+ L=1u  
+ W=1u         
M_M5         N04827 N04839 N04941 N04941 nfet  
+ L=1u  
+ W=1.3753u         
M_M3         N04643 N04643 N04545 N04545 pfet  
+ L=1u  
+ W=1u         
M_M1         N04643 N04639 N04827 N04827 nfet  
+ L=1u  
+ W=3.5u         
C_CL         N04639 0  2.7p  TC=0,0 
M_M9         N09594 N04839 N04545 N04545 pfet  
+ L=1u  
+ W=1u         
M_M10         N04839 N04839 N04545 N04545 pfet  
+ L=1u  
+ W=1.7188u         
M_M11         N04839 N09594 N09642 N09642 nfet  
+ L=1u  
+ W=1u         
M_M12         N09621 N09594 N09594 N09594 nfet  
+ L=1u  
+ W=1u         
M_M13         N04941 N09621 N09621 N09621 nfet  
+ L=1u  
+ W=1u         
M_M14         N09642 N09621 N11039 N11039 nfet  
+ L=1u  
+ W=4u         
V_Vdd         N04545 0 2.01V
R_R1         N04941 N11039  7.4635k TC=0,0 
V_V1         N09074 0  
+PULSE 0 1 0 1n 1n 20u 40u

**** RESUMING telestikos.cir ****
.END

**** 01/03/20 00:35:28 ******* PSpice Lite (March 2016) ******* ID# 10813 ****

 ** Profile: "SCHEMATIC1-telestikos"  [ c:\users\napoleon\desktop\opamp\telestikos-pspicefiles\schematic1\telestikos.sim ] 


 ****     MOSFET MODEL PARAMETERS


******************************************************************************




               nfet            pfet            
               NMOS            PMOS            
       LEVEL    3               3            
         TPG                   -1            
           L  100.000000E-06  100.000000E-06 
           W  100.000000E-06  100.000000E-06 
          LD  164.700000E-09   22.000000E-09 
         VTO     .786           -.9056       
          KP   96.379000E-06   29.352000E-06 
       GAMMA     .5863           .4863       
         PHI     .6              .6          
      LAMBDA    0               0            
         RSH   85.45          104.7          
          IS   10.000000E-15   10.000000E-15 
          JS    0               0            
          PB     .8              .85         
        PBSW     .8              .85         
          CJ  385.410000E-06  484.470000E-06 
        CJSW  139.400000E-12  164.570000E-12 
          MJ    1.1854           .5027       
        MJSW     .125195         .217168     
        CGSO  402.410000E-12   53.752000E-12 
        CGDO  402.410000E-12   53.752000E-12 
        CGBO  361.440000E-12  336.500000E-12 
        NSUB   16.160000E+15   18.900000E+15 
         NFS    5.000000E+12    3.460000E+12 
         TOX   21.200000E-09   21.200000E-09 
          XJ  200.000000E-09  200.000000E-09 
          UO  591.7           180.2          
       UCRIT   10.000000E+03   10.000000E+03 
        VMAX  208.200000E+03  373.200000E+03 
       DELTA     .6967          1.52         
       THETA     .08122          .1248       
         ETA     .07066          .1641       
       KAPPA     .1396          9.694        
      DIOMOD    1               1            
         VFB    0               0            
        LETA    0               0            
        WETA    0               0            
          U0    0               0            
        TEMP    0               0            
         VDD    5               5            
       XPART    0               0            


**** 01/03/20 00:35:28 ******* PSpice Lite (March 2016) ******* ID# 10813 ****

 ** Profile: "SCHEMATIC1-telestikos"  [ c:\users\napoleon\desktop\opamp\telestikos-pspicefiles\schematic1\telestikos.sim ] 


 ****     TEMPERATURE-ADJUSTED VALUES      TEMPERATURE =    0.000 DEG C


******************************************************************************




 **** MOSFET MODEL PARAMETERS

                    nfet           pfet      

        VTO        8.347E-01     -9.575E-01  
        PHI        6.600E-01      6.600E-01  
         PB        8.420E-01      8.875E-01  
     IS(JS)        1.048E-16      1.048E-16  
         KP        1.110E-04      3.381E-05  
         UO        6.816E+02      2.076E+02  


**** 01/03/20 00:35:28 ******* PSpice Lite (March 2016) ******* ID# 10813 ****

 ** Profile: "SCHEMATIC1-telestikos"  [ c:\users\napoleon\desktop\opamp\telestikos-pspicefiles\schematic1\telestikos.sim ] 


 ****     INITIAL TRANSIENT SOLUTION       TEMPERATURE =    0.000 DEG C


******************************************************************************



 NODE   VOLTAGE     NODE   VOLTAGE     NODE   VOLTAGE     NODE   VOLTAGE


(N04545)    2.0100 (N04587)    -.1721 (N04639)     .0207 (N04643)    -.3123     

(N04827)    -.9961 (N04839)    -.4996 (N04941)   -2.0100 (N09074)    0.0000     

(N09594)    -.7637 (N09621)   -1.3868 (N09642)   -1.5483 (N11039)   -2.0009 




    VOLTAGE SOURCE CURRENTS
    NAME         CURRENT

    V_Vss        3.297E-04
    V_Vdd       -3.297E-04
    V_V1         0.000E+00

    TOTAL POWER DISSIPATION   1.33E-03  WATTS


**** 01/03/20 00:35:28 ******* PSpice Lite (March 2016) ******* ID# 10813 ****

 ** Profile: "SCHEMATIC1-telestikos"  [ c:\users\napoleon\desktop\opamp\telestikos-pspicefiles\schematic1\telestikos.sim ] 


 ****     TEMPERATURE-ADJUSTED VALUES      TEMPERATURE =   10.000 DEG C


******************************************************************************




 **** MOSFET MODEL PARAMETERS

                    nfet           pfet      

        VTO        8.168E-01     -9.385E-01  
        PHI        6.379E-01      6.379E-01  
         PB        8.266E-01      8.737E-01  
     IS(JS)        6.260E-16      6.260E-16  
         KP        1.052E-04      3.203E-05  
         UO        6.458E+02      1.967E+02  


**** 01/03/20 00:35:28 ******* PSpice Lite (March 2016) ******* ID# 10813 ****

 ** Profile: "SCHEMATIC1-telestikos"  [ c:\users\napoleon\desktop\opamp\telestikos-pspicefiles\schematic1\telestikos.sim ] 


 ****     INITIAL TRANSIENT SOLUTION       TEMPERATURE =   10.000 DEG C


******************************************************************************



 NODE   VOLTAGE     NODE   VOLTAGE     NODE   VOLTAGE     NODE   VOLTAGE


(N04545)    2.0100 (N04587)    -.1732 (N04639)     .0213 (N04643)    -.3182     

(N04827)    -.9874 (N04839)    -.5047 (N04941)   -2.0100 (N09074)    0.0000     

(N09594)    -.8064 (N09621)   -1.4082 (N09642)   -1.5716 (N11039)   -2.0011 




    VOLTAGE SOURCE CURRENTS
    NAME         CURRENT

    V_Vss        3.206E-04
    V_Vdd       -3.206E-04
    V_V1         0.000E+00

    TOTAL POWER DISSIPATION   1.29E-03  WATTS


**** 01/03/20 00:35:28 ******* PSpice Lite (March 2016) ******* ID# 10813 ****

 ** Profile: "SCHEMATIC1-telestikos"  [ c:\users\napoleon\desktop\opamp\telestikos-pspicefiles\schematic1\telestikos.sim ] 


 ****     TEMPERATURE-ADJUSTED VALUES      TEMPERATURE =   20.000 DEG C


******************************************************************************




 **** MOSFET MODEL PARAMETERS

                    nfet           pfet      

        VTO        7.988E-01     -9.192E-01  
        PHI        6.157E-01      6.157E-01  
         PB        8.110E-01      8.598E-01  
     IS(JS)        3.319E-15      3.319E-15  
         KP        9.985E-05      3.041E-05  
         UO        6.130E+02      1.867E+02  


**** 01/03/20 00:35:28 ******* PSpice Lite (March 2016) ******* ID# 10813 ****

 ** Profile: "SCHEMATIC1-telestikos"  [ c:\users\napoleon\desktop\opamp\telestikos-pspicefiles\schematic1\telestikos.sim ] 


 ****     INITIAL TRANSIENT SOLUTION       TEMPERATURE =   20.000 DEG C


******************************************************************************



 NODE   VOLTAGE     NODE   VOLTAGE     NODE   VOLTAGE     NODE   VOLTAGE


(N04545)    2.0100 (N04587)    -.1741 (N04639)     .0219 (N04643)    -.3242     

(N04827)    -.9786 (N04839)    -.5098 (N04941)   -2.0100 (N09074)    0.0000     

(N09594)    -.8493 (N09621)   -1.4296 (N09642)   -1.5949 (N11039)   -2.0012 




    VOLTAGE SOURCE CURRENTS
    NAME         CURRENT

    V_Vss        3.122E-04
    V_Vdd       -3.122E-04
    V_V1         0.000E+00

    TOTAL POWER DISSIPATION   1.25E-03  WATTS


**** 01/03/20 00:35:28 ******* PSpice Lite (March 2016) ******* ID# 10813 ****

 ** Profile: "SCHEMATIC1-telestikos"  [ c:\users\napoleon\desktop\opamp\telestikos-pspicefiles\schematic1\telestikos.sim ] 


 ****     TEMPERATURE-ADJUSTED VALUES      TEMPERATURE =   30.000 DEG C


******************************************************************************




 **** MOSFET MODEL PARAMETERS

                    nfet           pfet      

        VTO        7.805E-01     -8.997E-01  
        PHI        5.933E-01      5.933E-01  
         PB        7.953E-01      8.458E-01  
     IS(JS)        1.580E-14      1.580E-14  
         KP        9.495E-05      2.892E-05  
         UO        5.829E+02      1.775E+02  


**** 01/03/20 00:35:28 ******* PSpice Lite (March 2016) ******* ID# 10813 ****

 ** Profile: "SCHEMATIC1-telestikos"  [ c:\users\napoleon\desktop\opamp\telestikos-pspicefiles\schematic1\telestikos.sim ] 


 ****     INITIAL TRANSIENT SOLUTION       TEMPERATURE =   30.000 DEG C


******************************************************************************



 NODE   VOLTAGE     NODE   VOLTAGE     NODE   VOLTAGE     NODE   VOLTAGE


(N04545)    2.0100 (N04587)    -.1748 (N04639)     .0226 (N04643)    -.3302     

(N04827)    -.9696 (N04839)    -.5149 (N04941)   -2.0100 (N09074)    0.0000     

(N09594)    -.8923 (N09621)   -1.4511 (N09642)   -1.6182 (N11039)   -2.0014 




    VOLTAGE SOURCE CURRENTS
    NAME         CURRENT

    V_Vss        3.043E-04
    V_Vdd       -3.043E-04
    V_V1         0.000E+00

    TOTAL POWER DISSIPATION   1.22E-03  WATTS


**** 01/03/20 00:35:28 ******* PSpice Lite (March 2016) ******* ID# 10813 ****

 ** Profile: "SCHEMATIC1-telestikos"  [ c:\users\napoleon\desktop\opamp\telestikos-pspicefiles\schematic1\telestikos.sim ] 


 ****     TEMPERATURE-ADJUSTED VALUES      TEMPERATURE =   40.000 DEG C


******************************************************************************




 **** MOSFET MODEL PARAMETERS

                    nfet           pfet      

        VTO        7.619E-01     -8.799E-01  
        PHI        5.707E-01      5.707E-01  
         PB        7.794E-01      8.316E-01  
     IS(JS)        6.824E-14      6.824E-14  
         KP        9.044E-05      2.754E-05  
         UO        5.552E+02      1.691E+02  


**** 01/03/20 00:35:28 ******* PSpice Lite (March 2016) ******* ID# 10813 ****

 ** Profile: "SCHEMATIC1-telestikos"  [ c:\users\napoleon\desktop\opamp\telestikos-pspicefiles\schematic1\telestikos.sim ] 


 ****     INITIAL TRANSIENT SOLUTION       TEMPERATURE =   40.000 DEG C


******************************************************************************



 NODE   VOLTAGE     NODE   VOLTAGE     NODE   VOLTAGE     NODE   VOLTAGE


(N04545)    2.0100 (N04587)    -.1753 (N04639)     .0234 (N04643)    -.3362     

(N04827)    -.9604 (N04839)    -.5201 (N04941)   -2.0100 (N09074)    0.0000     

(N09594)    -.9354 (N09621)   -1.4727 (N09642)   -1.6417 (N11039)   -2.0015 




    VOLTAGE SOURCE CURRENTS
    NAME         CURRENT

    V_Vss        2.971E-04
    V_Vdd       -2.971E-04
    V_V1         0.000E+00

    TOTAL POWER DISSIPATION   1.19E-03  WATTS


**** 01/03/20 00:35:28 ******* PSpice Lite (March 2016) ******* ID# 10813 ****

 ** Profile: "SCHEMATIC1-telestikos"  [ c:\users\napoleon\desktop\opamp\telestikos-pspicefiles\schematic1\telestikos.sim ] 


 ****     TEMPERATURE-ADJUSTED VALUES      TEMPERATURE =   50.000 DEG C


******************************************************************************




 **** MOSFET MODEL PARAMETERS

                    nfet           pfet      

        VTO        7.431E-01     -8.598E-01  
        PHI        5.481E-01      5.481E-01  
         PB        7.634E-01      8.172E-01  
     IS(JS)        2.698E-13      2.698E-13  
         KP        8.627E-05      2.627E-05  
         UO        5.297E+02      1.613E+02  


**** 01/03/20 00:35:28 ******* PSpice Lite (March 2016) ******* ID# 10813 ****

 ** Profile: "SCHEMATIC1-telestikos"  [ c:\users\napoleon\desktop\opamp\telestikos-pspicefiles\schematic1\telestikos.sim ] 


 ****     INITIAL TRANSIENT SOLUTION       TEMPERATURE =   50.000 DEG C


******************************************************************************



 NODE   VOLTAGE     NODE   VOLTAGE     NODE   VOLTAGE     NODE   VOLTAGE


(N04545)    2.0100 (N04587)    -.1757 (N04639)     .0241 (N04643)    -.3423     

(N04827)    -.9510 (N04839)    -.5253 (N04941)   -2.0100 (N09074)    0.0000     

(N09594)    -.9787 (N09621)   -1.4943 (N09642)   -1.6651 (N11039)   -2.0015 




    VOLTAGE SOURCE CURRENTS
    NAME         CURRENT

    V_Vss        2.903E-04
    V_Vdd       -2.903E-04
    V_V1         0.000E+00

    TOTAL POWER DISSIPATION   1.17E-03  WATTS


**** 01/03/20 00:35:28 ******* PSpice Lite (March 2016) ******* ID# 10813 ****

 ** Profile: "SCHEMATIC1-telestikos"  [ c:\users\napoleon\desktop\opamp\telestikos-pspicefiles\schematic1\telestikos.sim ] 


 ****     TEMPERATURE-ADJUSTED VALUES      TEMPERATURE =   60.000 DEG C


******************************************************************************




 **** MOSFET MODEL PARAMETERS

                    nfet           pfet      

        VTO        7.240E-01     -8.394E-01  
        PHI        5.252E-01      5.252E-01  
         PB        7.472E-01      8.027E-01  
     IS(JS)        9.843E-13      9.843E-13  
         KP        8.242E-05      2.510E-05  
         UO        5.060E+02      1.541E+02  


**** 01/03/20 00:35:28 ******* PSpice Lite (March 2016) ******* ID# 10813 ****

 ** Profile: "SCHEMATIC1-telestikos"  [ c:\users\napoleon\desktop\opamp\telestikos-pspicefiles\schematic1\telestikos.sim ] 


 ****     INITIAL TRANSIENT SOLUTION       TEMPERATURE =   60.000 DEG C


******************************************************************************



 NODE   VOLTAGE     NODE   VOLTAGE     NODE   VOLTAGE     NODE   VOLTAGE


(N04545)    2.0100 (N04587)    -.1759 (N04639)     .0249 (N04643)    -.3484     

(N04827)    -.9414 (N04839)    -.5306 (N04941)   -2.0100 (N09074)    0.0000     

(N09594)   -1.0221 (N09621)   -1.5160 (N09642)   -1.6887 (N11039)   -2.0016 




    VOLTAGE SOURCE CURRENTS
    NAME         CURRENT

    V_Vss        2.840E-04
    V_Vdd       -2.840E-04
    V_V1         0.000E+00

    TOTAL POWER DISSIPATION   1.14E-03  WATTS


**** 01/03/20 00:35:28 ******* PSpice Lite (March 2016) ******* ID# 10813 ****

 ** Profile: "SCHEMATIC1-telestikos"  [ c:\users\napoleon\desktop\opamp\telestikos-pspicefiles\schematic1\telestikos.sim ] 


 ****     TEMPERATURE-ADJUSTED VALUES      TEMPERATURE =   70.000 DEG C


******************************************************************************




 **** MOSFET MODEL PARAMETERS

                    nfet           pfet      

        VTO        7.045E-01     -8.187E-01  
        PHI        5.023E-01      5.023E-01  
         PB        7.309E-01      7.881E-01  
     IS(JS)        3.336E-12      3.336E-12  
         KP        7.884E-05      2.401E-05  
         UO        4.840E+02      1.474E+02  


**** 01/03/20 00:35:28 ******* PSpice Lite (March 2016) ******* ID# 10813 ****

 ** Profile: "SCHEMATIC1-telestikos"  [ c:\users\napoleon\desktop\opamp\telestikos-pspicefiles\schematic1\telestikos.sim ] 


 ****     INITIAL TRANSIENT SOLUTION       TEMPERATURE =   70.000 DEG C


******************************************************************************



 NODE   VOLTAGE     NODE   VOLTAGE     NODE   VOLTAGE     NODE   VOLTAGE


(N04545)    2.0100 (N04587)    -.1761 (N04639)     .0257 (N04643)    -.3546     

(N04827)    -.9316 (N04839)    -.5359 (N04941)   -2.0100 (N09074)    0.0000     

(N09594)   -1.0656 (N09621)   -1.5378 (N09642)   -1.7123 (N11039)   -2.0017 




    VOLTAGE SOURCE CURRENTS
    NAME         CURRENT

    V_Vss        2.781E-04
    V_Vdd       -2.781E-04
    V_V1         0.000E+00

    TOTAL POWER DISSIPATION   1.12E-03  WATTS



          JOB CONCLUDED

**** 01/03/20 00:35:28 ******* PSpice Lite (March 2016) ******* ID# 10813 ****

 ** Profile: "SCHEMATIC1-telestikos"  [ c:\users\napoleon\desktop\opamp\telestikos-pspicefiles\schematic1\telestikos.sim ] 


 ****     JOB STATISTICS SUMMARY


******************************************************************************



  Total job time (using Solver 1)   =         .52
